Time [s],Channel 0,Channel 1,Channel 2
-0.038697167,0,0,0
-0.008805833,0,0,1
-0.000030000,0,0,0
-0.000013583,0,1,0
0.000000000,1,1,0
0.009190500,0,1,0
0.019188583,0,0,0
0.041186167,0,0,1
0.049958167,0,0,0
0.091183333,0,0,1
0.099956833,0,0,0
0.099973167,1,0,0
0.109180917,0,0,0
0.141182417,0,0,1
0.149954917,0,0,0
0.191182333,0,0,1
0.199959083,0,0,0
0.199975500,0,1,0
0.199989083,1,1,0
0.209180250,0,1,0
0.219179083,0,0,0
0.241176250,0,0,1
0.249947333,0,0,0
0.291168500,0,0,1
0.299942167,0,0,0
0.299958417,1,0,0
0.309165250,0,0,0
0.341158917,0,0,1
0.349929500,0,0,0
0.391149833,0,0,1
0.399927250,0,0,0
0.399943583,0,1,0
0.399957250,1,1,0
0.409149917,0,1,0
0.419148917,0,0,0
0.441149833,0,0,1
0.449921500,0,0,0
0.491146333,0,0,1
0.499920333,0,0,0
0.499936583,1,0,0
0.509145083,0,0,0
0.541139500,0,0,1
0.549910667,0,0,0
0.591132083,0,0,1
0.599908333,0,0,0
0.599924667,0,1,0
0.599938333,1,1,0
0.609131667,0,1,0
0.619131917,0,0,0
0.641131167,0,0,1
0.649902333,0,0,0
0.691123917,0,0,1
0.699896917,0,0,0
0.699913167,1,0,0
0.709119833,0,0,0
0.741114167,0,0,1
0.749883750,0,0,0
0.791107833,0,0,1
0.799884000,0,0,0
0.799900333,0,1,0
0.799914000,1,1,0
0.809106250,0,1,0
0.819105833,0,0,0
0.841103833,0,0,1
0.849874583,0,0,0
0.891094417,0,0,1
0.899868833,0,0,0
0.899885083,1,0,0
0.909092250,0,0,0
0.941089667,0,0,1
0.949861167,0,0,0
0.991082583,0,0,1
0.999858750,0,0,0
0.999875083,0,1,0
0.999888750,1,1,0
1.009081167,0,1,0
1.019081417,0,0,0
1.041079500,0,0,1
1.049850667,0,0,0
1.091074500,0,0,1
1.099848583,0,0,0
1.099864917,1,0,0
1.109071833,0,0,0
1.141071083,0,0,1
1.149842583,0,0,0
1.191069917,0,0,1
1.199845250,0,0,0
1.199861667,0,1,0
1.199875250,1,1,0
1.209065667,0,1,0
1.219063750,0,0,0
1.241059917,0,0,1
1.249831500,0,0,0
1.291054917,0,0,1
1.299829583,0,0,0
1.299845917,1,0,0
1.309053917,0,0,0
1.341048333,0,0,1
1.349819083,0,0,0
1.391043250,0,0,1
1.399818583,0,0,0
1.399834917,0,1,0
1.399848583,1,1,0
1.409039750,0,1,0
1.419039583,0,0,0
1.441037083,0,0,1
1.449807250,0,0,0
1.491032500,0,0,1
1.499806917,0,0,0
1.499823167,1,0,0
1.509030500,0,0,0
1.541029083,0,0,1
1.549799750,0,0,0
1.591025750,0,0,1
1.599804167,0,0,0
1.599820500,0,1,0
1.599834167,1,1,0
1.609027833,0,1,0
1.619028833,0,0,0
1.641027750,0,0,1
1.649799083,0,0,0
1.691026417,0,0,1
1.699801083,0,0,0
1.699817417,1,0,0
1.709024583,0,0,0
1.741018083,0,0,1
1.749788667,0,0,0
1.791009333,0,0,1
1.799784083,0,0,0
1.799800417,0,1,0
1.799814083,1,1,0
1.809005750,0,1,0
1.819003417,0,0,0
1.840998750,0,0,1
1.849768917,0,0,0
1.890988833,0,0,1
1.899761583,0,0,0
1.899777917,1,0,0
1.908984167,0,0,0
1.940981000,0,0,1
1.949752417,0,0,0
1.990978833,0,0,1
1.999753417,0,0,0
1.999769833,0,1,0
1.999783417,1,1,0
2.008975417,0,1,0
2.018973417,0,0,0
2.040967667,0,0,1
2.049739250,0,0,0
2.090958583,0,0,1
2.099730833,0,0,0
2.099747167,1,0,0
2.108953500,0,0,0
2.140945500,0,0,1
2.149715167,0,0,0
2.190933917,0,0,1
2.199709000,0,0,0
2.199725333,0,1,0
2.199738917,1,1,0
2.208930000,0,1,0
2.218927833,0,0,0
2.240922000,0,0,1
2.249691500,0,0,0
2.290911750,0,0,1
2.299685833,0,0,0
2.299702167,1,0,0
2.308908417,0,0,0
2.340898333,0,0,1
2.349668917,0,0,0
2.390886750,0,0,1
2.399661583,0,0,0
2.399677917,0,1,0
2.399691583,1,1,0
2.408880917,0,1,0
2.418879583,0,0,0
2.440876583,0,0,1
2.449647667,0,0,0
2.490875083,0,0,1
2.499649500,0,0,0
2.499665833,1,0,0
2.508873250,0,0,0
2.540871333,0,0,1
2.549642583,0,0,0
2.590863167,0,0,1
2.599638417,0,0,0
2.599654750,0,1,0
2.599668417,1,1,0
2.608859833,0,1,0
2.618858500,0,0,0
2.640855083,0,0,1
2.649626000,0,0,0
2.690854083,0,0,1
2.699628417,0,0,0
2.699644667,1,0,0
2.708852250,0,0,0
2.740849667,0,0,1
2.749620417,0,0,0
2.790849500,0,0,1
2.799627083,0,0,0
2.799643500,0,1,0
2.799657083,1,1,0
2.808849000,0,1,0
2.818847583,0,0,0
2.840847417,0,0,1
2.849620000,0,0,0
2.890845083,0,0,1
2.899618500,0,0,0
2.899634750,1,0,0
2.908840833,0,0,0
2.940834917,0,0,1
2.949604583,0,0,0
2.990827750,0,0,1
2.999603083,0,0,0
2.999619417,0,1,0
2.999633000,1,1,0
3.008825167,0,1,0
3.018823167,0,0,0
3.040820167,0,0,1
3.049592250,0,0,0
3.090813500,0,0,1
3.099587333,0,0,0
3.099603583,1,0,0
3.108811833,0,0,0
3.140810000,0,0,1
3.149581667,0,0,0
3.190801333,0,0,1
3.199577250,0,0,0
3.199593583,0,1,0
3.199607250,1,1,0
3.208799833,0,1,0
3.218797917,0,0,0
3.240793417,0,0,1
3.249565417,0,0,0
3.290788417,0,0,1
3.299561833,0,0,0
3.299578167,1,0,0
3.308784167,0,0,0
3.340778000,0,0,1
3.349548417,0,0,0
3.390768917,0,0,1
3.399545083,0,0,0
3.399561417,0,1,0
3.399575083,1,1,0
3.408765000,0,1,0
3.418763250,0,0,0
3.440758917,0,0,1
3.449529167,0,0,0
3.490752250,0,0,1
3.499526833,0,0,0
3.499543083,1,0,0
3.508749167,0,0,0
3.540741500,0,0,1
3.549510750,0,0,0
3.590734583,0,0,1
3.599510833,0,0,0
3.599527167,0,1,0
3.599540833,1,1,0
3.608732333,0,1,0
3.618730250,0,0,0
3.640727500,0,0,1
3.649498417,0,0,0
3.690725583,0,0,1
3.699498583,0,0,0
3.699514917,1,0,0
3.708721667,0,0,0
3.740713583,0,0,1
3.749484500,0,0,0
3.790709417,0,0,1
3.799485750,0,0,0
3.799502083,0,1,0
3.799515750,1,1,0
3.808706250,0,1,0
3.818703083,0,0,0
3.840700083,0,0,1
3.849470583,0,0,0
3.890688917,0,0,1
3.899461917,0,0,0
3.899478250,1,0,0
3.908683250,0,0,0
3.940675750,0,0,1
3.949446000,0,0,0
3.990666583,0,0,1
3.999442250,0,0,0
3.999458583,0,1,0
3.999472250,1,1,0
4.008664333,0,1,0
4.018664583,0,0,0
4.040661500,0,0,1
4.049431917,0,0,0
4.090654917,0,0,1
4.099429167,0,0,0
4.099445500,1,0,0
4.108652500,0,0,0
4.140649750,0,0,1
4.149420667,0,0,0
4.190645500,0,0,1
4.199422000,0,0,0
4.199438417,0,1,0
4.199452000,1,1,0
4.208643417,0,1,0
4.218642167,0,0,0
4.240638000,0,0,1
4.249408750,0,0,0
4.290631333,0,0,1
4.299406083,0,0,0
4.299422333,1,0,0
4.308629083,0,0,0
4.340624667,0,0,1
4.349395333,0,0,0
4.390615417,0,0,1
4.399390333,0,0,0
4.399406667,0,1,0
4.399420250,1,1,0
4.408611833,0,1,0
4.418610500,0,0,0
4.440608000,0,0,1
4.449378667,0,0,0
4.490609333,0,0,1
4.499385667,0,0,0
4.499402000,1,0,0
4.508611000,0,0,0
4.540607333,0,0,1
4.549377083,0,0,0
4.590597417,0,0,1
4.599373167,0,0,0
4.599389500,0,1,0
4.599403083,1,1,0
4.608594750,0,1,0
4.618593583,0,0,0
4.640590833,0,0,1
4.649361417,0,0,0
4.690582333,0,0,1
4.699356083,0,0,0
4.699372333,1,0,0
4.708580000,0,0,0
4.740575750,0,0,1
4.749346917,0,0,0
4.790568250,0,0,1
4.799343250,0,0,0
4.799359667,0,1,0
4.799373250,1,1,0
4.808563833,0,1,0
4.818560833,0,0,0
4.840555917,0,0,1
4.849326500,0,0,0
4.890548000,0,0,1
4.899321000,0,0,0
4.899337333,1,0,0
4.908543583,0,0,0
4.940539833,0,0,1
4.949311083,0,0,0
4.990534667,0,0,1
4.999311083,0,0,0
4.999327417,0,1,0
4.999341083,1,1,0
5.008533917,0,1,0
5.018532250,0,0,0
5.040528583,0,0,1
5.049299167,0,0,0
5.090527417,0,0,1
5.099302083,0,0,0
5.099318417,1,0,0
5.108525750,0,0,0
5.140525250,0,0,1
5.149296917,0,0,0
5.190519667,0,0,1
5.199295000,0,0,0
5.199311333,0,1,0
5.199324917,1,1,0
5.208516667,0,1,0
5.218514667,0,0,0
5.240510833,0,0,1
5.249282083,0,0,0
5.290504667,0,0,1
5.299279500,0,0,0
5.299295750,1,0,0
5.308503500,0,0,0
5.340501917,0,0,1
5.349272167,0,0,0
5.390491833,0,0,1
5.399267417,0,0,0
5.399283750,0,1,0
5.399297417,1,1,0
5.408489167,0,1,0
5.418486083,0,0,0
5.440478167,0,0,1
5.449247500,0,0,0
5.490466167,0,0,1
5.499240083,0,0,0
5.499256333,1,0,0
5.508462417,0,0,0
5.540455917,0,0,1
5.549226250,0,0,0
5.590443917,0,0,1
5.599218167,0,0,0
5.599234500,0,1,0
5.599248167,1,1,0
5.608438250,0,1,0
5.618435417,0,0,0
5.640430250,0,0,1
5.649201167,0,0,0
5.690418500,0,0,1
5.699192500,0,0,0
5.699208833,1,0,0
5.708414333,0,0,0
5.740402833,0,0,1
5.749171667,0,0,0
5.790386750,0,0,1
5.799162250,0,0,0
5.799178667,0,1,0
5.799192250,1,1,0
5.808382333,0,1,0
5.818378583,0,0,0
5.840371000,0,0,1
5.849140750,0,0,0
5.890356333,0,0,1
5.899129250,0,0,0
5.899145500,1,0,0
5.908352917,0,0,0
5.940349167,0,0,1
5.949118333,0,0,0
5.990339833,0,0,1
5.999114917,0,0,0
5.999131250,0,1,0
5.999144917,1,1,0
6.008334750,0,1,0
6.018333417,0,0,0
6.040329167,0,0,1
6.049099667,0,0,0
6.090322500,0,0,1
6.099096333,0,0,0
6.099112583,1,0,0
6.108319500,0,0,0
6.140312833,0,0,1
6.149083167,0,0,0
6.190298667,0,0,1
6.199075000,0,0,0
6.199091333,0,1,0
6.199105000,1,1,0
6.208295833,0,1,0
6.218294917,0,0,0
6.240289083,0,0,1
6.249059583,0,0,0
6.290277583,0,0,1
6.299050833,0,0,0
6.299067083,1,0,0
6.308273500,0,0,0
6.340268500,0,0,1
6.349039250,0,0,0
6.390259500,0,0,1
6.399034583,0,0,0
6.399050917,0,1,0
6.399064583,1,1,0
6.408254583,0,1,0
6.418251083,0,0,0
6.440245167,0,0,1
6.449015500,0,0,0
6.490235917,0,0,1
6.499011833,0,0,0
6.499028167,1,0,0
6.508236167,0,0,0
6.540237833,0,0,1
6.549007917,0,0,0
6.590231333,0,0,1
6.599006750,0,0,0
6.599023083,0,1,0
6.599036750,1,1,0
6.608227250,0,1,0
6.618225667,0,0,0
6.640222167,0,0,1
6.648993583,0,0,0
6.690219333,0,0,1
6.698993583,0,0,0
6.699009833,1,0,0
6.708217667,0,0,0
6.740213750,0,0,1
6.748983750,0,0,0
6.790205250,0,0,1
6.798980417,0,0,0
6.798996750,0,1,0
6.799010417,1,1,0
6.808201667,0,1,0
6.818200417,0,0,0
6.840198667,0,0,1
6.848969500,0,0,0
6.890189417,0,0,1
6.898963333,0,0,0
6.898979667,1,0,0
6.908188000,0,0,0
6.940185250,0,0,1
6.948954917,0,0,0
6.990173917,0,0,1
6.998950333,0,0,0
6.998966667,0,1,0
6.998980333,1,1,0
7.008172917,0,1,0
7.018172583,0,0,0
7.040167833,0,0,1
7.048939417,0,0,0
7.090160250,0,0,1
7.098935667,0,0,0
7.098951917,1,0,0
7.108159667,0,0,0
7.140160083,0,0,1
7.148931417,0,0,0
7.190157667,0,0,1
7.198934083,0,0,0
7.198950500,0,1,0
7.198964083,1,1,0
7.208157583,0,1,0
7.218158417,0,0,0
7.240158750,0,0,1
7.248930000,0,0,0
7.290156000,0,0,1
7.298932333,0,0,0
7.298948667,1,0,0
7.308159333,0,0,0
7.340163333,0,0,1
7.348934583,0,0,0
7.390162417,0,0,1
7.398939833,0,0,0
7.398956167,0,1,0
7.398969833,1,1,0
7.408162417,0,1,0
7.418161667,0,0,0
7.440160250,0,0,1
7.448932083,0,0,0
7.490157083,0,0,1
7.498930917,0,0,0
7.498947167,1,0,0
7.508154333,0,0,0
7.540149083,0,0,1
7.548919583,0,0,0
7.590144667,0,0,1
7.598923167,0,0,0
7.598939500,0,1,0
7.598953167,1,1,0
7.608146917,0,1,0
7.618148417,0,0,0
7.640149333,0,0,1
7.648920417,0,0,0
7.690149083,0,0,1
7.698925000,0,0,0
7.698941333,1,0,0
7.708149667,0,0,0
7.740151917,0,0,1
7.748922667,0,0,0
7.790146500,0,0,1
7.798923500,0,0,0
7.798939833,0,1,0
7.798953500,1,1,0
7.808145500,0,1,0
7.818146083,0,0,0
7.840143500,0,0,1
7.848914917,0,0,0
7.890140167,0,0,1
7.898914250,0,0,0
7.898930500,1,0,0
7.908138750,0,0,0
7.940133250,0,0,1
7.948903583,0,0,0
7.990121083,0,0,1
7.998896500,0,0,0
7.998912917,0,1,0
7.998926500,1,1,0
8.008118167,0,1,0
8.018116000,0,0,0
8.040112250,0,0,1
8.048882667,0,0,0
8.090107083,0,0,1
8.098881583,0,0,0
8.098897833,1,0,0
8.108104667,0,0,0
8.140099917,0,0,1
8.148871417,0,0,0
8.190091667,0,0,1
8.198867417,0,0,0
8.198883750,0,1,0
8.198897417,1,1,0
8.208087000,0,1,0
8.218084250,0,0,0
8.240076083,0,0,1
8.248845250,0,0,0
8.290058333,0,0,1
8.298831167,0,0,0
8.298847417,1,0,0
8.308054000,0,0,0
8.340042167,0,0,1
8.348811083,0,0,0
8.390031667,0,0,1
8.398806917,0,0,0
8.398823250,0,1,0
8.398836917,1,1,0
8.408026000,0,1,0
8.418022750,0,0,0
8.440013917,0,0,1
8.448782083,0,0,0
8.489993667,0,0,1
8.498764667,0,0,0
8.498781000,1,0,0
8.507985000,0,0,0
8.539974417,0,0,1
8.548744083,0,0,0
8.589964667,0,0,1
8.598741583,0,0,0
8.598757917,0,1,0
8.598771583,1,1,0
8.607963250,0,1,0
8.617962250,0,0,0
8.639959750,0,0,1
8.648730500,0,0,0
8.689951500,0,0,1
8.698724250,0,0,0
8.698740500,1,0,0
8.707947667,0,0,0
8.739939917,0,0,1
8.748709583,0,0,0
8.789926167,0,0,1
8.798702417,0,0,0
8.798718750,0,1,0
8.798732417,1,1,0
8.807924000,0,1,0
8.817921667,0,0,0
8.839916667,0,0,1
8.848686167,0,0,0
8.889902583,0,0,1
8.898675250,0,0,0
8.898691500,1,0,0
8.907898000,0,0,0
8.939886333,0,0,1
8.948655000,0,0,0
8.989867417,0,0,1
8.998641333,0,0,0
8.998657667,0,1,0
8.998671250,1,1,0
9.007860500,0,1,0
9.017856917,0,0,0
9.039851000,0,0,1
9.048620583,0,0,0
9.089837167,0,0,1
9.098610667,0,0,0
9.098627000,1,0,0
9.107833917,0,0,0
9.139827083,0,0,1
9.148595500,0,0,0
9.189812083,0,0,1
9.198586917,0,0,0
9.198603250,0,1,0
9.198616833,1,1,0
9.207806500,0,1,0
9.217804083,0,0,0
9.239798417,0,0,1
9.248568750,0,0,0
9.289786750,0,0,1
9.298558750,0,0,0
9.298575000,1,0,0
9.307781250,0,0,0
9.339775167,0,0,1
9.348545500,0,0,0
9.389764083,0,0,1
9.398538250,0,0,0
9.398554583,0,1,0
9.398568250,1,1,0
9.407758917,0,1,0
9.417757000,0,0,0
9.439750167,0,0,1
9.448519667,0,0,0
9.489732667,0,0,1
9.498505083,0,0,0
9.498521417,1,0,0
9.507728583,0,0,0
9.539719417,0,0,1
9.548488083,0,0,0
9.589708750,0,0,1
9.598484750,0,0,0
9.598501083,0,1,0
9.598514750,1,1,0
9.607706750,0,1,0
9.617705833,0,0,0
9.639700583,0,0,1
9.648471417,0,0,0
9.689690833,0,0,1
9.698463917,0,0,0
9.698480167,1,0,0
9.707686000,0,0,0
9.739681333,0,0,1
9.748452000,0,0,0
9.789672833,0,0,1
9.798448500,0,0,0
9.798464833,0,1,0
9.798478500,1,1,0
9.807669500,0,1,0
9.817667833,0,0,0
9.839665500,0,0,1
9.848436250,0,0,0
9.889657667,0,0,1
9.898430583,0,0,0
9.898446917,1,0,0
9.907653583,0,0,0
9.939647583,0,0,1
9.948415833,0,0,0
9.989632000,0,0,1
9.998407583,0,0,0
9.998424000,0,1,0
9.998437583,1,1,0
10.007628167,0,1,0
10.017624750,0,0,0
10.039619000,0,0,1
10.048388167,0,0,0
10.089606750,0,0,1
10.098378667,0,0,0
10.098395000,1,0,0
10.107600417,0,0,0
10.139594417,0,0,1
10.148363833,0,0,0
10.189583000,0,0,1
10.198358750,0,0,0
10.198375083,0,1,0
10.198388750,1,1,0
10.207579583,0,1,0
10.217576667,0,0,0
10.239575083,0,0,1
10.248347417,0,0,0
10.289566833,0,0,1
10.298338750,0,0,0
10.298355083,1,0,0
10.307561667,0,0,0
10.339555750,0,0,1
10.348326917,0,0,0
10.389548750,0,0,1
10.398325167,0,0,0
10.398341500,0,1,0
10.398355167,1,1,0
10.407546750,0,1,0
10.417545083,0,0,0
10.439542833,0,0,1
10.448312750,0,0,0
10.489535250,0,0,1
10.498308417,0,0,0
10.498324750,1,0,0
10.507531417,0,0,0
10.539525333,0,0,1
10.548296333,0,0,0
10.589511917,0,0,1
10.598285750,0,0,0
10.598302083,0,1,0
10.598315750,1,1,0
10.607506083,0,1,0
10.617503417,0,0,0
10.639498000,0,0,1
10.648267667,0,0,0
10.689485833,0,0,1
10.698258667,0,0,0
10.698274917,1,0,0
10.707482167,0,0,0
10.739475417,0,0,1
10.748245000,0,0,0
10.789464333,0,0,1
10.798239750,0,0,0
10.798256083,0,1,0
10.798269750,1,1,0
10.807460500,0,1,0
10.817461000,0,0,0
10.839458250,0,0,1
10.848228167,0,0,0
10.889449417,0,0,1
10.898223000,0,0,0
10.898239250,1,0,0
10.907446750,0,0,0
10.939441583,0,0,1
10.948212333,0,0,0
10.989429833,0,0,1
10.998203583,0,0,0
10.998219917,0,1,0
10.998233500,1,1,0
11.007423583,0,1,0
11.017419833,0,0,0
11.039409083,0,0,1
11.048177083,0,0,0
11.089386083,0,0,1
11.098157750,0,0,0
11.098174083,1,0,0
11.107380250,0,0,0
11.139371333,0,0,1
11.148140417,0,0,0
11.189360500,0,0,1
11.198134583,0,0,0
11.198150917,0,1,0
11.198164583,1,1,0
11.207353667,0,1,0
11.217349083,0,0,0
11.239343500,0,0,1
11.248113167,0,0,0
11.289329583,0,0,1
11.298103333,0,0,0
11.298119583,1,0,0
11.307325167,0,0,0
11.339316083,0,0,1
11.348086333,0,0,0
11.389303167,0,0,1
11.398078583,0,0,0
11.398094917,0,1,0
11.398108500,1,1,0
11.407299333,0,1,0
11.417297167,0,0,0
11.439291417,0,0,1
11.448062667,0,0,0
11.489282333,0,0,1
11.498055583,0,0,0
11.498071917,1,0,0
11.507277750,0,0,0
11.539271333,0,0,1
11.548042750,0,0,0
11.589266417,0,0,1
11.598043083,0,0,0
11.598059417,0,1,0
11.598073083,1,1,0
11.607264750,0,1,0
11.617262417,0,0,0
11.639258000,0,0,1
11.648029167,0,0,0
11.689246500,0,0,1
11.698019917,0,0,0
11.698036167,1,0,0
11.707243417,0,0,0
11.739237417,0,0,1
11.748007167,0,0,0
11.789225833,0,0,1
11.798002417,0,0,0
11.798018750,0,1,0
11.798032417,1,1,0
11.807223083,0,1,0
11.817220750,0,0,0
11.839213667,0,0,1
11.847983500,0,0,0
11.889200250,0,0,1
11.897973667,0,0,0
11.897989917,1,0,0
11.907197250,0,0,0
11.939189583,0,0,1
11.947960250,0,0,0
11.989181083,0,0,1
11.997956833,0,0,0
11.997973167,0,1,0
11.997986833,1,1,0
12.007177167,0,1,0
12.017173833,0,0,0
12.039168250,0,0,1
12.047937333,0,0,0
12.089156250,0,0,1
12.097929333,0,0,0
12.097945583,1,0,0
12.107151167,0,0,0
12.139142250,0,0,1
12.147911500,0,0,0
12.189129833,0,0,1
12.197905000,0,0,0
12.197921417,0,1,0
12.197935000,1,1,0
12.207126250,0,1,0
12.217124833,0,0,0
12.239123083,0,0,1
12.247895167,0,0,0
12.289112417,0,0,1
12.297885667,0,0,0
12.297901917,1,0,0
12.307109250,0,0,0
12.339104583,0,0,1
12.347874833,0,0,0
12.389089250,0,0,1
12.397864250,0,0,0
12.397880583,0,1,0
12.397894250,1,1,0
12.407085167,0,1,0
12.417083000,0,0,0
12.439077833,0,0,1
12.447848250,0,0,0
12.489062083,0,0,1
12.497833167,0,0,0
12.497849417,1,0,0
12.507053917,0,0,0
12.539045750,0,0,1
12.547817500,0,0,0
12.589036917,0,0,1
12.597811500,0,0,0
12.597827917,0,1,0
12.597841500,1,1,0
12.607032417,0,1,0
12.617032083,0,0,0
12.639032583,0,0,1
12.647803583,0,0,0
12.689019417,0,0,1
12.697791583,0,0,0
12.697807833,1,0,0
12.707014583,0,0,0
12.739006583,0,0,1
12.747777417,0,0,0
12.788996583,0,0,1
12.797771500,0,0,0
12.797787917,0,1,0
12.797801500,1,1,0
12.806993500,0,1,0
12.816994000,0,0,0
12.838995000,0,0,1
12.847766167,0,0,0
12.888990333,0,0,1
12.897764250,0,0,0
12.897780500,1,0,0
12.906987417,0,0,0
12.938980500,0,0,1
12.947751333,0,0,0
12.988970333,0,0,1
12.997745333,0,0,0
12.997761667,0,1,0
12.997775333,1,1,0
13.006965667,0,1,0
13.016963250,0,0,0
13.038955833,0,0,1
13.047724833,0,0,0
13.088940250,0,0,1
13.097713333,0,0,0
13.097729667,1,0,0
13.106934750,0,0,0
13.138925917,0,0,1
13.147695750,0,0,0
13.188916167,0,0,1
13.197692417,0,0,0
13.197708833,0,1,0
13.197722417,1,1,0
13.206913083,0,1,0
13.216908417,0,0,0
13.238903083,0,0,1
13.247674583,0,0,0
13.288895000,0,0,1
13.297668000,0,0,0
13.297684250,1,0,0
13.306891667,0,0,0
13.338887500,0,0,1
13.347658417,0,0,0
13.388880750,0,0,1
13.397654917,0,0,0
13.397671250,0,1,0
13.397684917,1,1,0
13.406873083,0,1,0
13.416869750,0,0,0
13.438866000,0,0,1
13.447635500,0,0,0
13.488853250,0,0,1
13.497626250,0,0,0
13.497642500,1,0,0
13.506848667,0,0,0
13.538844333,0,0,1
13.547614917,0,0,0
13.588835917,0,0,1
13.597609833,0,0,0
13.597626250,0,1,0
13.597639833,1,1,0
13.606829583,0,1,0
13.616826917,0,0,0
13.638822583,0,0,1
13.647593167,0,0,0
13.688812750,0,0,1
13.697586917,0,0,0
13.697603167,1,0,0
13.706810417,0,0,0
13.738804000,0,0,1
13.747575750,0,0,0
13.788802167,0,0,1
13.797578333,0,0,0
13.797594667,0,1,0
13.797608333,1,1,0
13.806799667,0,1,0
13.816798417,0,0,0
13.838796917,0,0,1
13.847568833,0,0,0
13.888794500,0,0,1
13.897568250,0,0,0
13.897584583,1,0,0
13.906792167,0,0,0
13.938788083,0,0,1
13.947557333,0,0,0
13.988779250,0,0,1
13.997554750,0,0,0
13.997571167,0,1,0
13.997584750,1,1,0
14.006775750,0,1,0
14.016773500,0,0,0
14.038769500,0,0,1
14.047541167,0,0,0
14.088765417,0,0,1
14.097539333,0,0,0
14.097555583,1,0,0
14.106763000,0,0,0
14.138760583,0,0,1
14.147531750,0,0,0
14.188755583,0,0,1
14.197530833,0,0,0
14.197547167,0,1,0
14.197560833,1,1,0
14.206752000,0,1,0
14.216748917,0,0,0
14.238746083,0,0,1
14.247517417,0,0,0
14.288737667,0,0,1
14.297511833,0,0,0
14.297528167,1,0,0
14.306734250,0,0,0
14.338728833,0,0,1
14.347499333,0,0,0
14.388720417,0,0,1
14.397496833,0,0,0
14.397513167,0,1,0
14.397526833,1,1,0
14.406718333,0,1,0
14.416716417,0,0,0
14.438713250,0,0,1
14.447483917,0,0,0
14.488704000,0,0,1
14.497477833,0,0,0
14.497494083,1,0,0
14.506701000,0,0,0
14.538699500,0,0,1
14.547470417,0,0,0
14.588695750,0,0,1
14.597473000,0,0,0
14.597489333,0,1,0
14.597503000,1,1,0
14.606695333,0,1,0
14.616695250,0,0,0
14.638694750,0,0,1
14.647465667,0,0,0
14.688686083,0,0,1
14.697460167,0,0,0
14.697476500,1,0,0
14.706685167,0,0,0
14.738682083,0,0,1
14.747454583,0,0,0
14.788679917,0,0,1
14.797457083,0,0,0
14.797473417,0,1,0
14.797487083,1,1,0
14.806679667,0,1,0
14.816679000,0,0,0
14.838677083,0,0,1
14.847448917,0,0,0
14.888670167,0,0,1
14.897444000,0,0,0
14.897460250,1,0,0
14.906667750,0,0,0
14.938663667,0,0,1
14.947436000,0,0,0
14.988659917,0,0,1
14.997436917,0,0,0
14.997453250,0,1,0
14.997466917,1,1,0
15.006659417,0,1,0
15.016657083,0,0,0
15.038653333,0,0,1
15.047424167,0,0,0
15.088650167,0,0,1
15.097425250,0,0,0
15.097441583,1,0,0
15.106649917,0,0,0
15.138645000,0,0,1
15.147416417,0,0,0
15.188638833,0,0,1
15.197415500,0,0,0
15.197431833,0,1,0
15.197445500,1,1,0
15.206637167,0,1,0
15.216636000,0,0,0
15.238632000,0,0,1
15.247403000,0,0,0
15.288623667,0,0,1
15.297397667,0,0,0
15.297413917,1,0,0
15.306621000,0,0,0
15.338616083,0,0,1
15.347387333,0,0,0
15.388608583,0,0,1
15.397382667,0,0,0
15.397399000,0,1,0
15.397412667,1,1,0
15.406603083,0,1,0
15.416601667,0,0,0
15.438595083,0,0,1
15.447366917,0,0,0
